Time [s],Value,Parity Error,Framing Error
0.0s,0xFE,,
0.0012385s,0x55,,
0.00247675s,0xEF,,
0.003715s,0x12,,
0.00495325s,0x78,,
0.0061915s,0x03,,
0.00743s,0x87,,
0.00866825s,0x00,,
0.0099065s,0x00,,
0.01114475s,0x00,,
0.012383s,0x02,,
0.01362125s,0x00,,
0.01485975s,0x00,,
0.016098s,0x41,,
0.01733625s,0x00,,
0.0185745s,0x00,,
0.01981275s,0x00,,
0.02105125s,0x00,,
0.0222895s,0x00,,
0.02352775s,0x00,,
0.024766s,0x00,,
0.0260045s,0x57,,
0.2727355s,0xFE,,
0.27397375s,0x55,,
0.275212s,0xEF,,
0.2764505s,0x0D,,
0.27768875s,0x73,,
0.278927s,0x00,,
0.28016525s,0x18,,
0.2814035s,0x01,,
0.282642s,0x01,,
0.28388025s,0x01,,
0.2851185s,0x02,,
0.28635675s,0x02,,
0.287595s,0x02,,
0.2888335s,0x02,,
0.29007175s,0x02,,
0.29131s,0x02,,
0.29254825s,0xA7,,
0.42762625s,0xFE,,
0.4288645s,0x55,,
0.43010275s,0xEF,,
0.431341s,0x15,,
0.43257925s,0x73,,
0.43381775s,0x01,,
0.435056s,0xFF,,
0.43629425s,0xFF,,
0.4375325s,0xFF,,
0.43877075s,0xFF,,
0.44000925s,0xFF,,
0.4412475s,0x00,,
0.44248575s,0x00,,
0.443724s,0x00,,
0.44496225s,0x00,,
0.44620075s,0x00,,
0.447439s,0x00,,
0.44867725s,0x00,,
0.4499155s,0x00,,
0.45115375s,0x00,,
0.45239225s,0x00,,
0.4536305s,0x00,,
0.45486875s,0x00,,
0.456107s,0x00,,
0.45734525s,0x84,,
0.5742615s,0xFE,,
0.57549975s,0x55,,
0.576738s,0xEF,,
0.57797625s,0x2F,,
0.5792145s,0x7C,,
0.580453s,0x00,,
0.58169125s,0x00,,
0.5829295s,0x00,,
0.58416775s,0x00,,
0.585406s,0x00,,
0.5866445s,0x00,,
0.58788275s,0x00,,
0.589121s,0x00,,
0.59035925s,0x00,,
0.5915975s,0x00,,
0.592836s,0x00,,
0.59407425s,0x00,,
0.5953125s,0x00,,
0.59655075s,0x00,,
0.597789s,0x00,,
0.5990275s,0x00,,
0.60026575s,0x00,,
0.601504s,0x00,,
0.60274225s,0x00,,
0.6039805s,0x00,,
0.605219s,0x00,,
0.60645725s,0x00,,
0.6076955s,0x00,,
0.60893375s,0x00,,
0.610172s,0x00,,
0.6114105s,0x01,,
0.61264875s,0x00,,
0.613887s,0x00,,
0.61512525s,0x00,,
0.6163635s,0x00,,
0.617602s,0x00,,
0.61884025s,0x00,,
0.6200785s,0x00,,
0.62131675s,0x00,,
0.622555s,0x00,,
0.6237935s,0x00,,
0.62503175s,0x00,,
0.62627s,0x00,,
0.62750825s,0x00,,
0.6287465s,0x00,,
0.629985s,0x00,,
0.63122325s,0x00,,
0.6324615s,0x00,,
0.63369975s,0x00,,
0.634938s,0x00,,
0.6361765s,0xAC,,
0.73874875s,0xFE,,
0.73998725s,0x55,,
0.7412255s,0xEF,,
0.74246375s,0x03,,
0.743702s,0x76,,
0.74494025s,0x00,,
0.74617875s,0x79,,
0.901482s,0xFE,,
0.90272025s,0x55,,
0.90395875s,0xEF,,
0.905197s,0x2F,,
0.90643525s,0x7C,,
0.9076735s,0x00,,
0.90891175s,0x00,,
0.91015025s,0x00,,
0.9113885s,0x00,,
0.91262675s,0x00,,
0.913865s,0x00,,
0.91510325s,0x00,,
0.91634175s,0x00,,
0.91758s,0x00,,
0.91881825s,0x00,,
0.9200565s,0x00,,
0.92129475s,0x00,,
0.92253325s,0x00,,
0.9237715s,0x00,,
0.92500975s,0x00,,
0.926248s,0x00,,
0.92748625s,0x00,,
0.92872475s,0x00,,
0.929963s,0x00,,
0.93120125s,0x00,,
0.9324395s,0x00,,
0.93367775s,0x00,,
0.93491625s,0x00,,
0.9361545s,0x00,,
0.93739275s,0x00,,
0.938631s,0x01,,
0.93986925s,0x00,,
0.94110775s,0x00,,
0.942346s,0x00,,
0.94358425s,0x00,,
0.9448225s,0x00,,
0.94606075s,0x00,,
0.94729925s,0x00,,
0.9485375s,0x00,,
0.94977575s,0x00,,
0.951014s,0x00,,
0.95225225s,0x00,,
0.95349075s,0x00,,
0.954729s,0x00,,
0.95596725s,0x00,,
0.9572055s,0x00,,
0.95844375s,0x00,,
0.959682s,0x00,,
0.9609205s,0x00,,
0.96215875s,0x00,,
0.963397s,0xAC,,
1.10931s,0xFE,,
1.11054825s,0x55,,
1.1117865s,0xEF,,
1.11302475s,0x0B,,
1.11426325s,0x77,,
1.1155015s,0x00,,
1.11673975s,0x00,,
1.117978s,0x00,,
1.11921625s,0x00,,
1.12045475s,0x00,,
1.121693s,0x00,,
1.12293125s,0x00,,
1.1241695s,0x00,,
1.12540775s,0x00,,
1.12664625s,0x82,,
1.31032725s,0xFE,,
1.3115655s,0x55,,
1.31280375s,0xEF,,
1.31404225s,0x2F,,
1.3152805s,0x7C,,
1.31651875s,0x00,,
1.317757s,0x00,,
1.31899525s,0x00,,
1.32023375s,0x00,,
1.321472s,0x00,,
1.32271025s,0x00,,
1.3239485s,0x00,,
1.32518675s,0x00,,
1.32642525s,0x00,,
1.3276635s,0x00,,
1.32890175s,0x00,,
1.33014s,0x00,,
1.33137825s,0x00,,
1.33261675s,0x00,,
1.333855s,0x00,,
1.33509325s,0x00,,
1.3363315s,0x00,,
1.33756975s,0x00,,
1.33880825s,0x00,,
1.3400465s,0x00,,
1.34128475s,0x00,,
1.342523s,0x00,,
1.34376125s,0x00,,
1.34499975s,0x00,,
1.346238s,0x00,,
1.34747625s,0x01,,
1.3487145s,0x00,,
1.34995275s,0x00,,
1.35119125s,0x00,,
1.3524295s,0x00,,
1.35366775s,0x00,,
1.354906s,0x00,,
1.35614425s,0x00,,
1.3573825s,0x00,,
1.358621s,0x00,,
1.35985925s,0x00,,
1.3610975s,0x00,,
1.36233575s,0x00,,
1.36357425s,0x00,,
1.3648125s,0x00,,
1.36605075s,0x00,,
1.367289s,0x00,,
1.36852725s,0x00,,
1.3697655s,0x00,,
1.371004s,0x00,,
1.37224225s,0xAC,,
1.5075265s,0xFE,,
1.50876475s,0x55,,
1.510003s,0xEF,,
1.51124125s,0x2C,,
1.5124795s,0x7D,,
1.513718s,0x00,,
1.51495625s,0x00,,
1.5161945s,0x00,,
1.51743275s,0x00,,
1.518671s,0x00,,
1.5199095s,0x00,,
1.52114775s,0x00,,
1.522386s,0x00,,
1.52362425s,0x00,,
1.52486275s,0x00,,
1.526101s,0x00,,
1.52733925s,0x00,,
1.5285775s,0x00,,
1.52981575s,0x00,,
1.53105425s,0x00,,
1.5322925s,0x18,,
1.53353075s,0x01,,
1.534769s,0x00,,
1.53600725s,0x00,,
1.5372455s,0x00,,
1.538484s,0x00,,
1.53972225s,0x00,,
1.5409605s,0x00,,
1.54219875s,0x00,,
1.54343725s,0x05,,
1.5446755s,0x00,,
1.54591375s,0x08,,
1.547152s,0x3B,,
1.54839025s,0x11,,
1.54962875s,0x00,,
1.550867s,0x04,,
1.55210525s,0x08,,
1.5533435s,0x01,,
1.55458175s,0x2C,,
1.55582025s,0x32,,
1.5570585s,0x00,,
1.55829675s,0x00,,
1.559535s,0x20,,
1.56077325s,0x06,,
1.56201175s,0x0A,,
1.56325s,0x32,,
1.56448825s,0x00,,
1.5657265s,0xE8,,
1.707615s,0xFE,,
1.70885325s,0x55,,
1.7100915s,0xEF,,
1.71133s,0x2F,,
1.71256825s,0x7C,,
1.7138065s,0x00,,
1.71504475s,0x00,,
1.716283s,0x00,,
1.7175215s,0x00,,
1.71875975s,0x00,,
1.719998s,0x00,,
1.72123625s,0x00,,
1.7224745s,0x00,,
1.723713s,0x00,,
1.72495125s,0x00,,
1.7261895s,0x00,,
1.72742775s,0x00,,
1.728666s,0x00,,
1.7299045s,0x00,,
1.73114275s,0x00,,
1.732381s,0x00,,
1.73361925s,0x00,,
1.7348575s,0x00,,
1.736096s,0x00,,
1.73733425s,0x00,,
1.7385725s,0x00,,
1.73981075s,0x00,,
1.741049s,0x00,,
1.74228725s,0x00,,
1.74352575s,0x00,,
1.744764s,0x01,,
1.74600225s,0x00,,
1.7472405s,0x00,,
1.74847875s,0x00,,
1.74971725s,0x00,,
1.7509555s,0x00,,
1.75219375s,0x00,,
1.753432s,0x00,,
1.75467025s,0x00,,
1.75590875s,0x00,,
1.757147s,0x00,,
1.75838525s,0x00,,
1.7596235s,0x00,,
1.76086175s,0x00,,
1.76210025s,0x00,,
1.7633385s,0x00,,
1.76457675s,0x00,,
1.765815s,0x00,,
1.76705325s,0x00,,
1.76829175s,0x00,,
1.76953s,0xAC,,
1.9147205s,0xFE,,
1.91595875s,0x55,,
1.91719725s,0xEF,,
1.9184355s,0x13,,
1.91967375s,0x7A,,
1.920912s,0x01,,
1.92215025s,0x00,,
1.92338875s,0x00,,
1.924627s,0x00,,
1.92586525s,0x00,,
1.9271035s,0x00,,
1.928342s,0x00,,
1.92958025s,0x00,,
1.9308185s,0x00,,
1.93205675s,0x00,,
1.933295s,0x00,,
1.9345335s,0x00,,
1.93577175s,0x00,,
1.93701s,0x00,,
1.93824825s,0x00,,
1.9394865s,0x00,,
1.94072475s,0x00,,
1.94196325s,0x8E,,
2.11274525s,0xFE,,
2.1139835s,0x55,,
2.115222s,0xEF,,
2.11646025s,0x2F,,
2.1176985s,0x7C,,
2.11893675s,0x00,,
2.120175s,0x00,,
2.1214135s,0x00,,
2.12265175s,0x00,,
2.12389s,0x00,,
2.12512825s,0x00,,
2.1263665s,0x00,,
2.127605s,0x00,,
2.12884325s,0x00,,
2.1300815s,0x00,,
2.13131975s,0x00,,
2.132558s,0x00,,
2.1337965s,0x00,,
2.13503475s,0x00,,
2.136273s,0x00,,
2.13751125s,0x00,,
2.1387495s,0x00,,
2.139988s,0x00,,
2.14122625s,0x00,,
2.1424645s,0x00,,
2.14370275s,0x00,,
2.144941s,0x00,,
2.1461795s,0x00,,
2.14741775s,0x00,,
2.148656s,0x00,,
2.14989425s,0x01,,
2.1511325s,0x00,,
2.152371s,0x00,,
2.15360925s,0x00,,
2.1548475s,0x00,,
2.15608575s,0x00,,
2.157324s,0x00,,
2.1585625s,0x00,,
2.15980075s,0x00,,
2.161039s,0x00,,
2.16227725s,0x00,,
2.1635155s,0x00,,
2.164754s,0x00,,
2.16599225s,0x00,,
2.1672305s,0x00,,
2.16846875s,0x00,,
2.169707s,0x00,,
2.1709455s,0x00,,
2.17218375s,0x00,,
2.173422s,0x00,,
2.17466025s,0xAC,,
2.31469125s,0xFE,,
2.3159295s,0x55,,
2.317168s,0xEF,,
2.31840625s,0x0D,,
2.3196445s,0x7B,,
2.32088275s,0x00,,
2.322121s,0x00,,
2.3233595s,0x00,,
2.32459775s,0x00,,
2.325836s,0x00,,
2.32707425s,0x00,,
2.3283125s,0x00,,
2.329551s,0x00,,
2.33078925s,0x00,,
2.3320275s,0x00,,
2.33326575s,0x00,,
2.334504s,0x88,,
2.5199395s,0xFE,,
2.52117775s,0x55,,
2.522416s,0xEF,,
2.52365425s,0x2F,,
2.52489275s,0x7C,,
2.526131s,0x00,,
2.52736925s,0x00,,
2.5286075s,0x00,,
2.52984575s,0x00,,
2.53108425s,0x00,,
2.5323225s,0x00,,
2.53356075s,0x00,,
2.534799s,0x00,,
2.53603725s,0x00,,
2.53727575s,0x00,,
2.538514s,0x00,,
2.53975225s,0x00,,
2.5409905s,0x00,,
2.54222875s,0x00,,
2.54346725s,0x00,,
2.5447055s,0x00,,
2.54594375s,0x00,,
2.547182s,0x00,,
2.54842025s,0x00,,
2.54965875s,0x00,,
2.550897s,0x00,,
2.55213525s,0x00,,
2.5533735s,0x00,,
2.55461175s,0x00,,
2.55585s,0x00,,
2.5570885s,0x01,,
2.55832675s,0x00,,
2.559565s,0x00,,
2.56080325s,0x00,,
2.5620415s,0x00,,
2.56328s,0x00,,
2.56451825s,0x00,,
2.5657565s,0x00,,
2.56699475s,0x00,,
2.568233s,0x00,,
2.5694715s,0x00,,
2.57070975s,0x00,,
2.571948s,0x00,,
2.57318625s,0x00,,
2.5744245s,0x00,,
2.575663s,0x00,,
2.57690125s,0x00,,
2.5781395s,0x00,,
2.57937775s,0x00,,
2.580616s,0x00,,
2.5818545s,0xAC,,
2.725394s,0xFE,,
2.72663225s,0x55,,
2.7278705s,0xEF,,
2.72910875s,0x03,,
2.73034725s,0x76,,
2.7315855s,0x00,,
2.73282375s,0x79,,
2.92187075s,0xFE,,
2.92310925s,0x55,,
2.9243475s,0xEF,,
2.92558575s,0x2F,,
2.926824s,0x7C,,
2.92806225s,0x00,,
2.9293005s,0x00,,
2.930539s,0x00,,
2.93177725s,0x00,,
2.9330155s,0x00,,
2.93425375s,0x00,,
2.935492s,0x00,,
2.9367305s,0x00,,
2.93796875s,0x00,,
2.939207s,0x00,,
2.94044525s,0x00,,
2.94168375s,0x00,,
2.942922s,0x00,,
2.94416025s,0x00,,
2.9453985s,0x00,,
2.94663675s,0x00,,
2.947875s,0x00,,
2.9491135s,0x00,,
2.95035175s,0x00,,
2.95159s,0x00,,
2.95282825s,0x00,,
2.9540665s,0x00,,
2.955305s,0x00,,
2.95654325s,0x00,,
2.9577815s,0x00,,
2.95901975s,0x01,,
2.960258s,0x00,,
2.9614965s,0x00,,
2.96273475s,0x00,,
2.963973s,0x00,,
2.96521125s,0x00,,
2.9664495s,0x00,,
2.967688s,0x00,,
2.96892625s,0x00,,
2.9701645s,0x00,,
2.97140275s,0x00,,
2.972641s,0x00,,
2.9738795s,0x00,,
2.97511775s,0x00,,
2.976356s,0x00,,
2.97759425s,0x00,,
2.9788325s,0x00,,
2.980071s,0x00,,
2.98130925s,0x00,,
2.9825475s,0x00,,
2.98378575s,0xAC,,
3.124436s,0xFE,,
3.12567425s,0x55,,
3.1269125s,0xEF,,
3.128151s,0x0B,,
3.12938925s,0x77,,
3.1306275s,0x00,,
3.13186575s,0x00,,
3.133104s,0x00,,
3.1343425s,0x00,,
3.13558075s,0x00,,
3.136819s,0x00,,
3.13805725s,0x00,,
3.1392955s,0x00,,
3.140534s,0x00,,
3.14177225s,0x82,,
3.323183s,0xFE,,
3.32442125s,0x55,,
3.32565975s,0xEF,,
3.326898s,0x2F,,
3.32813625s,0x7C,,
3.3293745s,0x00,,
3.33061275s,0x00,,
3.33185125s,0x00,,
3.3330895s,0x00,,
3.33432775s,0x00,,
3.335566s,0x00,,
3.33680425s,0x00,,
3.33804275s,0x00,,
3.339281s,0x00,,
3.34051925s,0x00,,
3.3417575s,0x00,,
3.342996s,0x00,,
3.34423425s,0x00,,
3.3454725s,0x00,,
3.34671075s,0x00,,
3.347949s,0x00,,
3.34918725s,0x00,,
3.35042575s,0x00,,
3.351664s,0x00,,
3.35290225s,0x00,,
3.3541405s,0x00,,
3.35537875s,0x00,,
3.35661725s,0x00,,
3.3578555s,0x00,,
3.35909375s,0x00,,
3.360332s,0x01,,
3.36157025s,0x00,,
3.36280875s,0x00,,
3.364047s,0x00,,
3.36528525s,0x00,,
3.3665235s,0x00,,
3.36776175s,0x00,,
3.36900025s,0x00,,
3.3702385s,0x00,,
3.37147675s,0x00,,
3.372715s,0x00,,
3.37395325s,0x00,,
3.37519175s,0x00,,
3.37643s,0x00,,
3.37766825s,0x00,,
3.3789065s,0x00,,
3.38014475s,0x00,,
3.38138325s,0x00,,
3.3826215s,0x00,,
3.38385975s,0x00,,
3.385098s,0xAC,,
3.53008225s,0xFE,,
3.5313205s,0x55,,
3.53255875s,0xEF,,
3.53379725s,0x2C,,
3.5350355s,0x7D,,
3.53627375s,0x00,,
3.537512s,0x00,,
3.53875025s,0x00,,
3.53998875s,0x00,,
3.541227s,0x00,,
3.54246525s,0x00,,
3.5437035s,0x00,,
3.54494175s,0x00,,
3.54618025s,0x00,,
3.5474185s,0x00,,
3.54865675s,0x00,,
3.549895s,0x00,,
3.55113325s,0x00,,
3.55237175s,0x00,,
3.55361s,0x00,,
3.55484825s,0x18,,
3.5560865s,0x01,,
3.55732475s,0x00,,
3.55856325s,0x00,,
3.5598015s,0x00,,
3.56103975s,0x00,,
3.562278s,0x00,,
3.56351625s,0x00,,
3.56475475s,0x00,,
3.565993s,0x05,,
3.56723125s,0x00,,
3.5684695s,0x08,,
3.56970775s,0x3B,,
3.57094625s,0x11,,
3.5721845s,0x00,,
3.57342275s,0x04,,
3.574661s,0x08,,
3.57589925s,0x01,,
3.57713775s,0x2C,,
3.578376s,0x32,,
3.57961425s,0x00,,
3.5808525s,0x00,,
3.58209075s,0x20,,
3.58332925s,0x06,,
3.5845675s,0x0A,,
3.58580575s,0x32,,
3.587044s,0x00,,
3.58828225s,0xE8,,
3.723257s,0xFE,,
3.72449525s,0x55,,
3.7257335s,0xEF,,
3.726972s,0x2F,,
3.72821025s,0x7C,,
3.7294485s,0x00,,
3.73068675s,0x00,,
3.731925s,0x00,,
3.7331635s,0x00,,
3.73440175s,0x00,,
3.73564s,0x00,,
3.73687825s,0x00,,
3.7381165s,0x00,,
3.739355s,0x00,,
3.74059325s,0x00,,
3.7418315s,0x00,,
3.74306975s,0x00,,
3.744308s,0x00,,
3.7455465s,0x00,,
3.74678475s,0x00,,
3.748023s,0x00,,
3.74926125s,0x00,,
3.7504995s,0x00,,
3.751738s,0x00,,
3.75297625s,0x00,,
3.7542145s,0x00,,
3.75545275s,0x00,,
3.756691s,0x00,,
3.7579295s,0x00,,
3.75916775s,0x00,,
3.760406s,0x01,,
3.76164425s,0x00,,
3.7628825s,0x00,,
3.764121s,0x00,,
3.76535925s,0x00,,
3.7665975s,0x00,,
3.76783575s,0x00,,
3.769074s,0x00,,
3.7703125s,0x00,,
3.77155075s,0x00,,
3.772789s,0x00,,
3.77402725s,0x00,,
3.7752655s,0x00,,
3.776504s,0x00,,
3.77774225s,0x00,,
3.7789805s,0x00,,
3.78021875s,0x00,,
3.781457s,0x00,,
3.78269525s,0x00,,
3.78393375s,0x00,,
3.785172s,0xAC,,
3.93098175s,0xFE,,
3.93222s,0x55,,
3.93345825s,0xEF,,
3.93469675s,0x13,,
3.935935s,0x7A,,
3.93717325s,0x01,,
3.9384115s,0x00,,
3.93964975s,0x00,,
3.94088825s,0x00,,
3.9421265s,0x00,,
3.94336475s,0x00,,
3.944603s,0x00,,
3.94584125s,0x00,,
3.94707975s,0x00,,
3.948318s,0x00,,
3.94955625s,0x00,,
3.9507945s,0x00,,
3.95203275s,0x00,,
3.95327125s,0x00,,
3.9545095s,0x00,,
3.95574775s,0x00,,
3.956986s,0x00,,
3.95822425s,0x8E,,
4.12776825s,0xFE,,
4.1290065s,0x55,,
4.13024475s,0xEF,,
4.131483s,0x2F,,
4.1327215s,0x7C,,
4.13395975s,0x00,,
4.135198s,0x00,,
4.13643625s,0x00,,
4.1376745s,0x00,,
4.138913s,0x00,,
4.14015125s,0x00,,
4.1413895s,0x00,,
4.14262775s,0x00,,
4.143866s,0x00,,
4.1451045s,0x00,,
4.14634275s,0x00,,
4.147581s,0x00,,
4.14881925s,0x00,,
4.1500575s,0x00,,
4.15129575s,0x00,,
4.15253425s,0x00,,
4.1537725s,0x00,,
4.15501075s,0x00,,
4.156249s,0x00,,
4.15748725s,0x00,,
4.15872575s,0x00,,
4.159964s,0x00,,
4.16120225s,0x00,,
4.1624405s,0x00,,
4.16367875s,0x00,,
4.16491725s,0x01,,
4.1661555s,0x00,,
4.16739375s,0x00,,
4.168632s,0x00,,
4.16987025s,0x00,,
4.17110875s,0x00,,
4.172347s,0x00,,
4.17358525s,0x00,,
4.1748235s,0x00,,
4.17606175s,0x00,,
4.17730025s,0x00,,
4.1785385s,0x00,,
4.17977675s,0x00,,
4.181015s,0x00,,
4.18225325s,0x00,,
4.18349175s,0x00,,
4.18473s,0x00,,
4.18596825s,0x00,,
4.1872065s,0x00,,
4.18844475s,0x00,,
4.18968325s,0xAC,,
4.3277535s,0xFE,,
4.32899175s,0x55,,
4.33023025s,0xEF,,
4.3314685s,0x0D,,
4.33270675s,0x7B,,
4.333945s,0x00,,
4.33518325s,0x00,,
4.33642175s,0x00,,
4.33766s,0x00,,
4.33889825s,0x00,,
4.3401365s,0x00,,
4.34137475s,0x00,,
4.34261325s,0x00,,
4.3438515s,0x00,,
4.34508975s,0x00,,
4.346328s,0x00,,
4.34756625s,0x88,,
4.52711975s,0xFE,,
4.528358s,0x55,,
4.52959625s,0xEF,,
4.53083475s,0x2F,,
4.532073s,0x7C,,
4.53331125s,0x00,,
4.5345495s,0x00,,
4.535788s,0x00,,
4.53702625s,0x00,,
4.5382645s,0x00,,
4.53950275s,0x00,,
4.540741s,0x00,,
4.54197925s,0x00,,
4.54321775s,0x00,,
4.544456s,0x00,,
4.54569425s,0x00,,
4.5469325s,0x00,,
4.54817075s,0x00,,
4.54940925s,0x00,,
4.5506475s,0x00,,
4.55188575s,0x00,,
4.553124s,0x00,,
4.55436225s,0x00,,
4.55560075s,0x00,,
4.556839s,0x00,,
4.55807725s,0x00,,
4.5593155s,0x00,,
4.56055375s,0x00,,
4.56179225s,0x00,,
4.5630305s,0x00,,
4.56426875s,0x01,,
4.565507s,0x00,,
4.56674525s,0x00,,
4.56798375s,0x00,,
4.569222s,0x00,,
4.57046025s,0x00,,
4.5716985s,0x00,,
4.57293675s,0x00,,
4.57417525s,0x00,,
4.5754135s,0x00,,
4.57665175s,0x00,,
4.57789s,0x00,,
4.57912825s,0x00,,
4.58036675s,0x00,,
4.581605s,0x00,,
4.58284325s,0x00,,
4.5840815s,0x00,,
4.58531975s,0x00,,
4.58655825s,0x00,,
4.5877965s,0x00,,
4.58903475s,0xAC,,
4.73824975s,0xFE,,
4.739488s,0x55,,
4.7407265s,0xEF,,
4.74196475s,0x03,,
4.743203s,0x76,,
4.74444125s,0x00,,
4.7456795s,0x79,,
4.92832875s,0xFE,,
4.929567s,0x55,,
4.9308055s,0xEF,,
4.93204375s,0x2F,,
4.933282s,0x7C,,
4.93452025s,0x00,,
4.9357585s,0x00,,
4.936997s,0x00,,
4.93823525s,0x00,,
4.9394735s,0x00,,
4.94071175s,0x00,,
4.94195s,0x00,,
4.9431885s,0x00,,
4.94442675s,0x00,,
4.945665s,0x00,,
4.94690325s,0x00,,
4.9481415s,0x00,,
4.94938s,0x00,,
4.95061825s,0x00,,
4.9518565s,0x00,,
4.95309475s,0x00,,
4.954333s,0x00,,
4.9555715s,0x00,,
4.95680975s,0x00,,
4.958048s,0x00,,
4.95928625s,0x00,,
4.9605245s,0x00,,
4.961763s,0x00,,
4.96300125s,0x00,,
4.9642395s,0x00,,
4.96547775s,0x01,,
4.966716s,0x00,,
4.9679545s,0x00,,
4.96919275s,0x00,,
4.970431s,0x00,,
4.97166925s,0x00,,
4.9729075s,0x00,,
4.97414575s,0x00,,
4.97538425s,0x00,,
4.9766225s,0x00,,
4.97786075s,0x00,,
4.979099s,0x00,,
4.9803375s,0x00,,
4.98157575s,0x00,,
4.982814s,0x00,,
4.98405225s,0x00,,
4.9852905s,0x00,,
4.98652875s,0x00,,
4.98776725s,0x00,,
4.9890055s,0x00,,
4.99024375s,0xAC,,
5.12883s,0xFE,,
5.1300685s,0x55,,
5.13130675s,0xEF,,
5.132545s,0x0B,,
5.13378325s,0x77,,
5.1350215s,0x00,,
5.13626s,0x00,,
5.13749825s,0x00,,
5.1387365s,0x00,,
5.13997475s,0x00,,
5.141213s,0x00,,
5.1424515s,0x00,,
5.14368975s,0x00,,
5.144928s,0x00,,
5.14616625s,0x82,,
5.336142s,0xFE,,
5.3373805s,0x55,,
5.33861875s,0xEF,,
5.339857s,0x2F,,
5.34109525s,0x7C,,
5.3423335s,0x00,,
5.34357175s,0x00,,
5.34481025s,0x00,,
5.3460485s,0x00,,
5.34728675s,0x00,,
5.348525s,0x00,,
5.34976325s,0x00,,
5.35100175s,0x00,,
5.35224s,0x00,,
5.35347825s,0x00,,
5.3547165s,0x00,,
5.35595475s,0x00,,
5.35719325s,0x00,,
5.3584315s,0x00,,
5.35966975s,0x00,,
5.360908s,0x00,,
5.36214625s,0x00,,
5.36338475s,0x00,,
5.364623s,0x00,,
5.36586125s,0x00,,
5.3670995s,0x00,,
5.36833775s,0x00,,
5.36957625s,0x00,,
5.3708145s,0x00,,
5.37205275s,0x00,,
5.373291s,0x01,,
5.37452925s,0x00,,
5.37576775s,0x00,,
5.377006s,0x00,,
5.37824425s,0x00,,
5.3794825s,0x00,,
5.38072075s,0x00,,
5.38195925s,0x00,,
5.3831975s,0x00,,
5.38443575s,0x00,,
5.385674s,0x00,,
5.38691225s,0x00,,
5.38815075s,0x00,,
5.389389s,0x00,,
5.39062725s,0x00,,
5.3918655s,0x00,,
5.39310375s,0x00,,
5.39434225s,0x00,,
5.3955805s,0x00,,
5.39681875s,0x00,,
5.398057s,0xAC,,
5.535405s,0xFE,,
5.53664325s,0x55,,
5.53788175s,0xEF,,
5.53912s,0x2C,,
5.54035825s,0x7D,,
5.5415965s,0x00,,
5.54283475s,0x00,,
5.54407325s,0x00,,
5.5453115s,0x00,,
5.54654975s,0x00,,
5.547788s,0x00,,
5.54902625s,0x00,,
5.55026475s,0x00,,
5.551503s,0x00,,
5.55274125s,0x00,,
5.5539795s,0x00,,
5.55521775s,0x00,,
5.55645625s,0x00,,
5.5576945s,0x00,,
5.55893275s,0x00,,
5.560171s,0x18,,
5.56140925s,0x01,,
5.56264775s,0x00,,
5.563886s,0x00,,
5.56512425s,0x00,,
5.5663625s,0x00,,
5.56760075s,0x00,,
5.56883925s,0x00,,
5.5700775s,0x00,,
5.57131575s,0x05,,
5.572554s,0x00,,
5.57379225s,0x08,,
5.57503075s,0x3B,,
5.576269s,0x11,,
5.57750725s,0x00,,
5.5787455s,0x04,,
5.57998375s,0x08,,
5.58122225s,0x01,,
5.5824605s,0x2C,,
5.58369875s,0x32,,
5.584937s,0x00,,
5.58617525s,0x00,,
5.58741375s,0x20,,
5.588652s,0x06,,
5.58989025s,0x0A,,
5.5911285s,0x32,,
5.59236675s,0x00,,
5.59360525s,0xE8,,
5.7327075s,0xFE,,
5.73394575s,0x55,,
5.735184s,0xEF,,
5.73642225s,0x2F,,
5.73766075s,0x7C,,
5.738899s,0x00,,
5.74013725s,0x00,,
5.7413755s,0x00,,
5.74261375s,0x00,,
5.74385225s,0x00,,
5.7450905s,0x00,,
5.74632875s,0x00,,
5.747567s,0x00,,
5.74880525s,0x00,,
5.75004375s,0x00,,
5.751282s,0x00,,
5.75252025s,0x00,,
5.7537585s,0x00,,
5.75499675s,0x00,,
5.75623525s,0x00,,
5.7574735s,0x00,,
5.75871175s,0x00,,
5.75995s,0x00,,
5.76118825s,0x00,,
5.7624265s,0x00,,
5.763665s,0x00,,
5.76490325s,0x00,,
5.7661415s,0x00,,
5.76737975s,0x00,,
5.76861825s,0x00,,
5.7698565s,0x01,,
5.77109475s,0x00,,
5.772333s,0x00,,
5.77357125s,0x00,,
5.77480975s,0x00,,
5.776048s,0x00,,
5.77728625s,0x00,,
5.7785245s,0x00,,
5.77976275s,0x00,,
5.781001s,0x00,,
5.7822395s,0x00,,
5.78347775s,0x00,,
5.784716s,0x00,,
5.78595425s,0x00,,
5.7871925s,0x00,,
5.788431s,0x00,,
5.78966925s,0x00,,
5.7909075s,0x00,,
5.79214575s,0x00,,
5.793384s,0x00,,
5.7946225s,0xAC,,
5.93506625s,0xFE,,
5.9363045s,0x55,,
5.93754275s,0xEF,,
5.938781s,0x13,,
5.9400195s,0x7A,,
5.94125775s,0x01,,
5.942496s,0x00,,
5.94373425s,0x00,,
5.9449725s,0x00,,
5.946211s,0x00,,
5.94744925s,0x00,,
5.9486875s,0x00,,
5.94992575s,0x00,,
5.951164s,0x00,,
5.9524025s,0x00,,
5.95364075s,0x00,,
5.954879s,0x00,,
5.95611725s,0x00,,
5.9573555s,0x00,,
5.95859375s,0x00,,
5.95983225s,0x00,,
5.9610705s,0x00,,
5.96230875s,0x8E,,
6.14000475s,0xFE,,
6.141243s,0x55,,
6.14248125s,0xEF,,
